
T15AC 000:074 SEGGER J-Link V6.14b Log File (0000ms, 0054ms total)
T15AC 000:074 DLL Compiled: Mar  9 2017 08:46:04 (0000ms, 0054ms total)
T15AC 000:074 Logging started @ 2017-04-20 12:27 (0000ms, 0054ms total)
T15AC 000:074 JLINK_SetWarnOutHandler(...) (0000ms, 0054ms total)
T15AC 000:074 JLINK_OpenEx(...)
Firmware: J-Link ARM-OB STM32 compiled Aug 22 2012 19:52:04
Hardware: V7.00
S/N: 20161026
Feature(s): RDI,FlashDL,FlashBP,JFlash,GDBFullWEBSRV Webserver running on local port 19080 (0040ms, 0094ms total)
T15AC 000:074   returns O.K. (0040ms, 0094ms total)
T15AC 000:114 JLINK_SetErrorOutHandler(...) (0000ms, 0094ms total)
T15AC 000:114 JLINK_ExecCommand("ProjectFile = "E:\nervous\BareCode_split\2G4Ble(for neuron_ble)\STM32F0x2_USB-FS-Device_Lib V1.0.0\Projects\Virtual_COM_Port\MDK-ARM\JLinkSettings.ini"", ...). C:\Program Files (x86)\SEGGER\JLink_V614b\JLinkDevices.xml evaluated successfully.  returns 0x00 (0111ms, 0205ms total)
T15AC 000:228 JLINK_ExecCommand("Device = STM32F072VB", ...). Device "STM32F072VB" selected.  returns 0x00 (0008ms, 0213ms total)
T15AC 000:236 JLINK_ExecCommand("DisableConnectionTimeout", ...).   returns 0x01 (0000ms, 0213ms total)
T15AC 000:236 JLINK_GetHardwareVersion()  returns 0x11170 (0000ms, 0213ms total)
T15AC 000:236 JLINK_GetDLLVersion()  returns 61402 (0000ms, 0213ms total)
T15AC 000:236 JLINK_GetFirmwareString(...) (0000ms, 0213ms total)
T15AC 000:245 JLINK_GetDLLVersion()  returns 61402 (0000ms, 0213ms total)
T15AC 000:245 JLINK_GetCompileDateTime() (0000ms, 0213ms total)
T15AC 000:250 JLINK_GetFirmwareString(...) (0000ms, 0213ms total)
T15AC 000:253 JLINK_GetHardwareVersion()  returns 0x11170 (0000ms, 0213ms total)
T15AC 000:268 JLINK_TIF_Select(JLINKARM_TIF_SWD)  returns 0x00 (0006ms, 0219ms total)
T15AC 000:274 JLINK_SetSpeed(5000) (0002ms, 0221ms total)
T15AC 000:276 JLINK_GetId() >0x108 TIF>Found SWD-DP with ID 0x0BB11477 >0x0D TIF> >0x28 TIF> >0x0D TIF> >0x28 TIF> >0x0D TIF> >0x28 TIF> >0x0D TIF> >0x28 TIF> >0x0D TIF> >0x21 TIF> >0x0D TIF> >0x28 TIF> >0x0D TIF> >0x28 TIF> >0x0D TIF> >0x28 TIF> >0x0D TIF> >0x21 TIF> >0x0D TIF> >0x21 TIF> >0x0D TIF> >0x28 TIF> >0x0D TIF> >0x21 TIF> >0x0D TIF> >0x21 TIF> >0x0D TIF> >0x28 TIF> >0x0D TIF> >0x21 TIF> >0x0D TIF> >0x21 TIF> >0x0D TIF> >0x28 TIF> >0x0D TIF> >0x28 TIF> >0x0D TIF> >0x28 TIF> >0x0D TIF>
 >0x21 TIF> >0x0D TIF> >0x21 TIF> >0x0D TIF> >0x28 TIF> >0x0D TIF> >0x28 TIF> >0x0D TIF> >0x28 TIF> >0x0D TIF> >0x21 TIF> >0x0D TIF> >0x21 TIF> >0x0D TIF> >0x28 TIF> >0x0D TIF> >0x28 TIF> >0x0D TIF> >0x28 TIF> >0x0D TIF> >0x21 TIF> >0x0D TIF> >0x21 TIF> >0x0D TIF> >0x28 TIF> >0x0D TIF> >0x21 TIF> >0x0D TIF> >0x21 TIF> >0x0D TIF> >0x28 TIF> >0x0D TIF> >0x21 TIF> >0x0D TIF> >0x21 TIF> >0x0D TIF> >0x28 TIF> >0x0D TIF> >0x21 TIF> >0x0D TIF> >0x21 TIF> >0x0D TIF> >0x28 TIF> >0x0D TIF> >0x21 TIF> >0x0D TIF>
 >0x21 TIF> >0x108 TIF>Found SWD-DP with ID 0x0BB11477 >0x0D TIF> >0x28 TIF> >0x0D TIF> >0x28 TIF> >0x0D TIF> >0x28 TIF> >0x0D TIF> >0x28 TIF> >0x0D TIF> >0x21 TIF> >0x0D TIF> >0x28 TIF> >0x0D TIF> >0x28 TIF> >0x0D TIF> >0x21 TIF> >0x0D TIF> >0x21 TIF> >0x0D TIF> >0x21 TIF>AP-IDR: 0x04770021, Type: AHB-APAHB-AP ROM: 0xE00FF000 (Base addr. of first ROM table) >0x0D TIF> >0x28 TIF> >0x0D TIF> >0x28 TIF> >0x0D TIF> >0x28 TIF> >0x0D TIF> >0x21 TIF> >0x0D TIF> >0x21 TIF> >0x0D TIF> >0x28 TIF> >0x0D TIF>
 >0x21 TIF> >0x0D TIF> >0x21 TIF>Found Cortex-M0 r0p0, Little endian. -- CPU_ReadMem(4 bytes @ 0xE000EDF0) -- CPU_WriteMem(4 bytes @ 0xE000EDF0) -- CPU_ReadMem(4 bytes @ 0xE0002000)FPUnit: 4 code (BP) slots and 0 literal slots -- CPU_ReadMem(4 bytes @ 0xE000EDFC) -- CPU_WriteMem(4 bytes @ 0xE000EDFC) -- CPU_ReadMem(4 bytes @ 0xE0001000) -- CPU_WriteMem(4 bytes @ 0xE0001000)CoreSight components:ROMTbl 0 @ E00FF000 -- CPU_ReadMem(16 bytes @ 0xE00FF000) -- CPU_ReadMem(16 bytes @ 0xE000EFF0)
 -- CPU_ReadMem(16 bytes @ 0xE000EFE0)ROMTbl 0 [0]: FFF0F000, CID: B105E00D, PID: 000BB008 SCS -- CPU_ReadMem(16 bytes @ 0xE0001FF0) -- CPU_ReadMem(16 bytes @ 0xE0001FE0)ROMTbl 0 [1]: FFF02000, CID: B105E00D, PID: 000BB00A DWT -- CPU_ReadMem(16 bytes @ 0xE0002FF0) -- CPU_ReadMem(16 bytes @ 0xE0002FE0)ROMTbl 0 [2]: FFF03000, CID: B105E00D, PID: 000BB00B FPB -- CPU is running -- CPU_WriteMem(4 bytes @ 0xE000EDF0) -- CPU is running -- CPU_WriteMem(4 bytes @ 0xE000EDFC) >0x35 TIF> -- CPU is running
 -- CPU_WriteMem(4 bytes @ 0xE000ED0C) >0x0D TIF> >0x28 TIF> -- CPU is running -- CPU_ReadMem(4 bytes @ 0xE000EDF0) -- CPU is running -- CPU_ReadMem(4 bytes @ 0xE000EDF0) -- CPU is running -- CPU_WriteMem(4 bytes @ 0xE000EDF0) -- CPU is running -- CPU_WriteMem(4 bytes @ 0xE000EDFC) -- CPU is running -- CPU_ReadMem(4 bytes @ 0xE000EDF0) -- CPU_WriteMem(4 bytes @ 0xE0002000) -- CPU_ReadMem(4 bytes @ 0xE000EDFC) -- CPU_ReadMem(4 bytes @ 0xE0001000) -- CPU_WriteMem(4 bytes @ 0xE0001000)
 -- CPU_WriteMem(16384 bytes @ 0x20000000) >0x0D TIF> >0x21 TIF>  returns 0x0BB11477 (0712ms, 0933ms total)
T15AC 000:988 JLINK_GetDLLVersion()  returns 61402 (0000ms, 0933ms total)
T15AC 000:988 JLINK_CORE_GetFound()  returns 0x60000FF (0000ms, 0933ms total)
T15AC 000:988 JLINK_GetDebugInfo(0x100 = JLINKARM_ROM_TABLE_ADDR_INDEX) -- Value=0xE00FF000  returns 0x00 (0000ms, 0933ms total)
T15AC 000:995 JLINK_GetDebugInfo(0x100 = JLINKARM_ROM_TABLE_ADDR_INDEX) -- Value=0xE00FF000  returns 0x00 (0000ms, 0933ms total)
T15AC 000:995 JLINK_GetDebugInfo(0x101 = JLINKARM_DEBUG_INFO_ETM_ADDR_INDEX) -- Value=0x00000000  returns 0x00 (0000ms, 0933ms total)
T15AC 000:995 JLINK_ReadMem (0xE0041FF0, 0x0010 Bytes, ...) -- CPU_ReadMem(16 bytes @ 0xE0041FF0) - Data: 00 00 00 00 00 00 00 00 00 00 00 00 00 00 00 00  returns 0x00 (0003ms, 0936ms total)
T15AC 000:998 JLINK_GetDebugInfo(0x102 = JLINKARM_DEBUG_INFO_MTB_ADDR_INDEX) -- Value=0x00000000  returns 0x00 (0000ms, 0936ms total)
T15AC 000:998 JLINK_GetDebugInfo(0x103 = JLINKARM_DEBUG_INFO_TPIU_ADDR_INDEX) -- Value=0x00000000  returns 0x00 (0000ms, 0936ms total)
T15AC 000:998 JLINK_ReadMem (0xE0040FF0, 0x0010 Bytes, ...) -- CPU_ReadMem(16 bytes @ 0xE0040FF0) - Data: 00 00 00 00 00 00 00 00 00 00 00 00 00 00 00 00  returns 0x00 (0003ms, 0939ms total)
T15AC 001:001 JLINK_GetDebugInfo(0x104 = JLINKARM_DEBUG_INFO_ITM_ADDR_INDEX) -- Value=0xE0000000  returns 0x00 (0000ms, 0939ms total)
T15AC 001:001 JLINK_GetDebugInfo(0x105 = JLINKARM_DEBUG_INFO_DWT_ADDR_INDEX) -- Value=0xE0001000  returns 0x00 (0000ms, 0939ms total)
T15AC 001:001 JLINK_GetDebugInfo(0x106 = JLINKARM_DEBUG_INFO_FPB_ADDR_INDEX) -- Value=0xE0002000  returns 0x00 (0000ms, 0939ms total)
T15AC 001:001 JLINK_GetDebugInfo(0x107 = JLINKARM_DEBUG_INFO_NVIC_ADDR_INDEX) -- Value=0xE000E000  returns 0x00 (0000ms, 0939ms total)
T15AC 001:001 JLINK_GetDebugInfo(0x10C = JLINKARM_DEBUG_INFO_DBG_ADDR_INDEX) -- Value=0xE000EDF0  returns 0x00 (0000ms, 0939ms total)
T15AC 001:001 JLINK_ReadMemU32(0xE000ED00, 0x0001 Items, ...) -- CPU_ReadMem(4 bytes @ 0xE000ED00) - Data: 00 C2 0C 41  returns 0x01 (0002ms, 0941ms total)
T15AC 001:003 JLINK_SetResetType(JLINKARM_CM3_RESET_TYPE_NORMAL)  returns JLINKARM_CM3_RESET_TYPE_NORMAL (0000ms, 0941ms total)
T15AC 001:003 JLINK_Reset() -- CPU_ReadMem(4 bytes @ 0x20000000) -- CPU_WriteMem(4 bytes @ 0x20000000) -- CPU_WriteMem(4 bytes @ 0xE000EDF0) -- CPU_WriteMem(4 bytes @ 0xE000EDFC) >0x35 TIF> -- CPU_WriteMem(4 bytes @ 0xE000ED0C) >0x0D TIF> >0x28 TIF> -- CPU_ReadMem(4 bytes @ 0xE000EDF0) -- CPU_ReadMem(4 bytes @ 0xE000EDF0) -- CPU_WriteMem(4 bytes @ 0xE000EDF0) -- CPU_WriteMem(4 bytes @ 0xE000EDFC) -- CPU is running -- CPU_ReadMem(4 bytes @ 0xE000EDF0) -- CPU_WriteMem(4 bytes @ 0xE0002000)
 -- CPU_ReadMem(4 bytes @ 0xE000EDFC) -- CPU_ReadMem(4 bytes @ 0xE0001000) -- CPU_WriteMem(4 bytes @ 0xE0001000) (0104ms, 1045ms total)
T15AC 001:107 JLINK_Halt()  returns 0x00 (0000ms, 1045ms total)
T15AC 001:107 JLINK_IsHalted()  returns TRUE (0000ms, 1045ms total)
T15AC 001:107 JLINK_ReadMemU32(0xE000EDF0, 0x0001 Items, ...) -- CPU_ReadMem(4 bytes @ 0xE000EDF0) - Data: 03 00 03 00  returns 0x01 (0002ms, 1047ms total)
T15AC 001:109 JLINK_WriteU32(0xE000EDF0, 0xA05F0003) -- CPU_WriteMem(4 bytes @ 0xE000EDF0)  returns 0x00 (0003ms, 1050ms total)
T15AC 001:112 JLINK_WriteU32(0xE000EDFC, 0x01000000) -- CPU_WriteMem(4 bytes @ 0xE000EDFC)  returns 0x00 (0002ms, 1052ms total)
T15AC 001:138 JLINK_GetHWStatus(...)  returns 0x00 (0003ms, 1055ms total)
T15AC 001:152 JLINK_GetNumBPUnits(Type = 0xFFFFFF00)  returns 0x04 (0000ms, 1055ms total)
T15AC 001:152 JLINK_GetNumBPUnits(Type = 0xF0)  returns 0x2000 (0000ms, 1055ms total)
T15AC 001:152 JLINK_GetNumWPUnits()  returns 0x02 (0000ms, 1055ms total)
T15AC 001:168 JLINK_GetSpeed()  returns 0xFA0 (0000ms, 1055ms total)
T15AC 001:194 JLINK_ReadMemU32(0xE000E004, 0x0001 Items, ...) -- CPU_ReadMem(4 bytes @ 0xE000E004) - Data: 00 00 00 00  returns 0x01 (0002ms, 1057ms total)
T15AC 001:196 JLINK_Halt()  returns 0x00 (0000ms, 1057ms total)
T15AC 001:196 JLINK_IsHalted()  returns TRUE (0000ms, 1057ms total)
T15AC 001:201 JLINK_WriteMem(0x20000000, 0x0170 Bytes, ...) - Data: 00 BE 0A E0 0D 78 2D 06 68 40 08 24 40 00 00 D3 ... -- CPU_WriteMem(368 bytes @ 0x20000000)  returns 0x170 (0006ms, 1063ms total)
T15AC 001:207 JLINK_WriteReg(R0, 0x08000000)  returns 0x00 (0001ms, 1064ms total)
T15AC 001:208 JLINK_WriteReg(R1, 0x007A1200)  returns 0x00 (0000ms, 1064ms total)
T15AC 001:208 JLINK_WriteReg(R2, 0x00000001)  returns 0x00 (0000ms, 1064ms total)
T15AC 001:208 JLINK_WriteReg(R3, 0x00000000)  returns 0x00 (0000ms, 1064ms total)
T15AC 001:208 JLINK_WriteReg(R4, 0x00000000)  returns 0x00 (0000ms, 1064ms total)
T15AC 001:208 JLINK_WriteReg(R5, 0x00000000)  returns 0x00 (0000ms, 1064ms total)
T15AC 001:208 JLINK_WriteReg(R6, 0x00000000)  returns 0x00 (0000ms, 1064ms total)
T15AC 001:208 JLINK_WriteReg(R7, 0x00000000)  returns 0x00 (0000ms, 1064ms total)
T15AC 001:208 JLINK_WriteReg(R8, 0x00000000)  returns 0x00 (0000ms, 1064ms total)
T15AC 001:208 JLINK_WriteReg(R9, 0x2000016C)  returns 0x00 (0000ms, 1064ms total)
T15AC 001:208 JLINK_WriteReg(R10, 0x00000000)  returns 0x00 (0000ms, 1064ms total)
T15AC 001:208 JLINK_WriteReg(R11, 0x00000000)  returns 0x00 (0000ms, 1064ms total)
T15AC 001:208 JLINK_WriteReg(R12, 0x00000000)  returns 0x00 (0000ms, 1064ms total)
T15AC 001:208 JLINK_WriteReg(R13 (SP), 0x20000800)  returns 0x00 (0000ms, 1064ms total)
T15AC 001:208 JLINK_WriteReg(R14, 0x20000001)  returns 0x00 (0000ms, 1064ms total)
T15AC 001:208 JLINK_WriteReg(R15 (PC), 0x20000038)  returns 0x00 (0000ms, 1064ms total)
T15AC 001:208 JLINK_WriteReg(XPSR, 0x01000000)  returns 0x00 (0000ms, 1064ms total)
T15AC 001:208 JLINK_WriteReg(MSP, 0x20000800)  returns 0x00 (0000ms, 1064ms total)
T15AC 001:208 JLINK_WriteReg(PSP, 0x20000800)  returns 0x00 (0000ms, 1064ms total)
T15AC 001:208 JLINK_WriteReg(CFBP, 0x00000000)  returns 0x00 (0000ms, 1064ms total)
T15AC 001:208 JLINK_SetBPEx(Addr = 0x20000000, Type = 0xFFFFFFF2) -- CPU_ReadMem(2 bytes @ 0x20000000)  returns 0x00000001 (0002ms, 1066ms total)
T15AC 001:210 JLINK_Go() -- CPU_WriteMem(2 bytes @ 0x20000000) -- CPU_ReadMem(4 bytes @ 0xE0001000) -- CPU_WriteMem(4 bytes @ 0xE0001000) -- CPU_WriteMem(4 bytes @ 0xE0002008) -- CPU_WriteMem(4 bytes @ 0xE000200C) -- CPU_WriteMem(4 bytes @ 0xE0002010) -- CPU_WriteMem(4 bytes @ 0xE0002014) -- CPU_WriteMem(4 bytes @ 0xE0001004) (0019ms, 1085ms total)
T15AC 001:229 JLINK_IsHalted() -- CPU_ReadMem(2 bytes @ 0x20000000)  returns TRUE (0009ms, 1094ms total)
T15AC 001:238 JLINK_ReadReg(R15 (PC))  returns 0x20000000 (0000ms, 1085ms total)
T15AC 001:238 JLINK_ClrBPEx(BPHandle = 0x00000001)  returns 0x00 (0000ms, 1085ms total)
T15AC 001:238 JLINK_ReadReg(R0)  returns 0x00000000 (0000ms, 1085ms total)
T15AC 001:239 JLINK_WriteReg(R0, 0x08000000)  returns 0x00 (0000ms, 1085ms total)
T15AC 001:239 JLINK_WriteReg(R1, 0x007A1200)  returns 0x00 (0000ms, 1085ms total)
T15AC 001:239 JLINK_WriteReg(R2, 0x00000001)  returns 0x00 (0000ms, 1085ms total)
T15AC 001:239 JLINK_WriteReg(R3, 0x00000000)  returns 0x00 (0000ms, 1085ms total)
T15AC 001:239 JLINK_WriteReg(R4, 0x00000000)  returns 0x00 (0000ms, 1085ms total)
T15AC 001:239 JLINK_WriteReg(R5, 0x00000000)  returns 0x00 (0000ms, 1085ms total)
T15AC 001:239 JLINK_WriteReg(R6, 0x00000000)  returns 0x00 (0000ms, 1085ms total)
T15AC 001:239 JLINK_WriteReg(R7, 0x00000000)  returns 0x00 (0000ms, 1085ms total)
T15AC 001:239 JLINK_WriteReg(R8, 0x00000000)  returns 0x00 (0000ms, 1085ms total)
T15AC 001:239 JLINK_WriteReg(R9, 0x2000016C)  returns 0x00 (0000ms, 1085ms total)
T15AC 001:239 JLINK_WriteReg(R10, 0x00000000)  returns 0x00 (0000ms, 1085ms total)
T15AC 001:239 JLINK_WriteReg(R11, 0x00000000)  returns 0x00 (0000ms, 1085ms total)
T15AC 001:239 JLINK_WriteReg(R12, 0x00000000)  returns 0x00 (0000ms, 1085ms total)
T15AC 001:239 JLINK_WriteReg(R13 (SP), 0x20000800)  returns 0x00 (0000ms, 1085ms total)
T15AC 001:239 JLINK_WriteReg(R14, 0x20000001)  returns 0x00 (0000ms, 1085ms total)
T15AC 001:239 JLINK_WriteReg(R15 (PC), 0x20000074)  returns 0x00 (0000ms, 1085ms total)
T15AC 001:239 JLINK_WriteReg(XPSR, 0x01000000)  returns 0x00 (0000ms, 1085ms total)
T15AC 001:239 JLINK_WriteReg(MSP, 0x20000800)  returns 0x00 (0000ms, 1085ms total)
T15AC 001:239 JLINK_WriteReg(PSP, 0x20000800)  returns 0x00 (0000ms, 1085ms total)
T15AC 001:239 JLINK_WriteReg(CFBP, 0x00000000)  returns 0x00 (0000ms, 1085ms total)
T15AC 001:239 JLINK_SetBPEx(Addr = 0x20000000, Type = 0xFFFFFFF2)  returns 0x00000002 (0000ms, 1085ms total)
T15AC 001:239 JLINK_Go() -- CPU_ReadMem(4 bytes @ 0xE0001000) -- CPU_WriteMem(4 bytes @ 0xE0001000) (0009ms, 1094ms total)
T15AC 001:248 JLINK_IsHalted()  returns FALSE (0002ms, 1096ms total)
T15AC 001:291 JLINK_IsHalted() -- CPU_ReadMem(2 bytes @ 0x20000000)  returns TRUE (0008ms, 1102ms total)
T15AC 001:299 JLINK_ReadReg(R15 (PC))  returns 0x20000000 (0000ms, 1094ms total)
T15AC 001:299 JLINK_ClrBPEx(BPHandle = 0x00000002)  returns 0x00 (0000ms, 1094ms total)
T15AC 001:299 JLINK_ReadReg(R0)  returns 0x00000000 (0000ms, 1094ms total)
T15AC 001:350 JLINK_WriteReg(R0, 0x00000001)  returns 0x00 (0000ms, 1094ms total)
T15AC 001:350 JLINK_WriteReg(R1, 0x007A1200)  returns 0x00 (0000ms, 1094ms total)
T15AC 001:350 JLINK_WriteReg(R2, 0x00000001)  returns 0x00 (0000ms, 1094ms total)
T15AC 001:350 JLINK_WriteReg(R3, 0x00000000)  returns 0x00 (0000ms, 1094ms total)
T15AC 001:350 JLINK_WriteReg(R4, 0x00000000)  returns 0x00 (0000ms, 1094ms total)
T15AC 001:350 JLINK_WriteReg(R5, 0x00000000)  returns 0x00 (0000ms, 1094ms total)
T15AC 001:350 JLINK_WriteReg(R6, 0x00000000)  returns 0x00 (0000ms, 1094ms total)
T15AC 001:350 JLINK_WriteReg(R7, 0x00000000)  returns 0x00 (0000ms, 1094ms total)
T15AC 001:350 JLINK_WriteReg(R8, 0x00000000)  returns 0x00 (0000ms, 1094ms total)
T15AC 001:350 JLINK_WriteReg(R9, 0x2000016C)  returns 0x00 (0000ms, 1094ms total)
T15AC 001:350 JLINK_WriteReg(R10, 0x00000000)  returns 0x00 (0000ms, 1094ms total)
T15AC 001:350 JLINK_WriteReg(R11, 0x00000000)  returns 0x00 (0000ms, 1094ms total)
T15AC 001:350 JLINK_WriteReg(R12, 0x00000000)  returns 0x00 (0000ms, 1094ms total)
T15AC 001:350 JLINK_WriteReg(R13 (SP), 0x20000800)  returns 0x00 (0000ms, 1094ms total)
T15AC 001:350 JLINK_WriteReg(R14, 0x20000001)  returns 0x00 (0000ms, 1094ms total)
T15AC 001:350 JLINK_WriteReg(R15 (PC), 0x20000066)  returns 0x00 (0000ms, 1094ms total)
T15AC 001:350 JLINK_WriteReg(XPSR, 0x01000000)  returns 0x00 (0000ms, 1094ms total)
T15AC 001:350 JLINK_WriteReg(MSP, 0x20000800)  returns 0x00 (0000ms, 1094ms total)
T15AC 001:350 JLINK_WriteReg(PSP, 0x20000800)  returns 0x00 (0000ms, 1094ms total)
T15AC 001:350 JLINK_WriteReg(CFBP, 0x00000000)  returns 0x00 (0000ms, 1094ms total)
T15AC 001:350 JLINK_SetBPEx(Addr = 0x20000000, Type = 0xFFFFFFF2)  returns 0x00000003 (0000ms, 1094ms total)
T15AC 001:350 JLINK_Go() -- CPU_ReadMem(4 bytes @ 0xE0001000) -- CPU_WriteMem(4 bytes @ 0xE0001000) (0009ms, 1103ms total)
T15AC 001:359 JLINK_IsHalted() -- CPU_ReadMem(2 bytes @ 0x20000000)  returns TRUE (0009ms, 1112ms total)
T15AC 001:368 JLINK_ReadReg(R15 (PC))  returns 0x20000000 (0000ms, 1103ms total)
T15AC 001:368 JLINK_ClrBPEx(BPHandle = 0x00000003)  returns 0x00 (0000ms, 1103ms total)
T15AC 001:368 JLINK_ReadReg(R0)  returns 0x00000000 (0000ms, 1103ms total)
T15AC 001:379 JLINK_WriteMem(0x20000000, 0x0170 Bytes, ...) - Data: 00 BE 0A E0 0D 78 2D 06 68 40 08 24 40 00 00 D3 ... -- CPU_WriteMem(368 bytes @ 0x20000000)  returns 0x170 (0006ms, 1109ms total)
T15AC 001:385 JLINK_WriteReg(R0, 0x08000000)  returns 0x00 (0000ms, 1109ms total)
T15AC 001:385 JLINK_WriteReg(R1, 0x007A1200)  returns 0x00 (0000ms, 1109ms total)
T15AC 001:385 JLINK_WriteReg(R2, 0x00000002)  returns 0x00 (0000ms, 1109ms total)
T15AC 001:385 JLINK_WriteReg(R3, 0x00000000)  returns 0x00 (0000ms, 1109ms total)
T15AC 001:385 JLINK_WriteReg(R4, 0x00000000)  returns 0x00 (0000ms, 1109ms total)
T15AC 001:385 JLINK_WriteReg(R5, 0x00000000)  returns 0x00 (0000ms, 1109ms total)
T15AC 001:385 JLINK_WriteReg(R6, 0x00000000)  returns 0x00 (0000ms, 1109ms total)
T15AC 001:385 JLINK_WriteReg(R7, 0x00000000)  returns 0x00 (0000ms, 1109ms total)
T15AC 001:385 JLINK_WriteReg(R8, 0x00000000)  returns 0x00 (0000ms, 1109ms total)
T15AC 001:385 JLINK_WriteReg(R9, 0x2000016C)  returns 0x00 (0000ms, 1109ms total)
T15AC 001:385 JLINK_WriteReg(R10, 0x00000000)  returns 0x00 (0000ms, 1109ms total)
T15AC 001:385 JLINK_WriteReg(R11, 0x00000000)  returns 0x00 (0000ms, 1109ms total)
T15AC 001:385 JLINK_WriteReg(R12, 0x00000000)  returns 0x00 (0000ms, 1109ms total)
T15AC 001:385 JLINK_WriteReg(R13 (SP), 0x20000800)  returns 0x00 (0000ms, 1109ms total)
T15AC 001:385 JLINK_WriteReg(R14, 0x20000001)  returns 0x00 (0000ms, 1109ms total)
T15AC 001:385 JLINK_WriteReg(R15 (PC), 0x20000038)  returns 0x00 (0000ms, 1109ms total)
T15AC 001:385 JLINK_WriteReg(XPSR, 0x01000000)  returns 0x00 (0000ms, 1109ms total)
T15AC 001:385 JLINK_WriteReg(MSP, 0x20000800)  returns 0x00 (0000ms, 1109ms total)
T15AC 001:385 JLINK_WriteReg(PSP, 0x20000800)  returns 0x00 (0000ms, 1109ms total)
T15AC 001:385 JLINK_WriteReg(CFBP, 0x00000000)  returns 0x00 (0000ms, 1109ms total)
T15AC 001:385 JLINK_SetBPEx(Addr = 0x20000000, Type = 0xFFFFFFF2) -- CPU_ReadMem(2 bytes @ 0x20000000)  returns 0x00000004 (0002ms, 1111ms total)
T15AC 001:387 JLINK_Go() -- CPU_WriteMem(2 bytes @ 0x20000000) -- CPU_ReadMem(4 bytes @ 0xE0001000) -- CPU_WriteMem(4 bytes @ 0xE0001000) (0012ms, 1123ms total)
T15AC 001:399 JLINK_IsHalted() -- CPU_ReadMem(2 bytes @ 0x20000000)  returns TRUE (0008ms, 1131ms total)
T15AC 001:408 JLINK_ReadReg(R15 (PC))  returns 0x20000000 (0000ms, 1123ms total)
T15AC 001:408 JLINK_ClrBPEx(BPHandle = 0x00000004)  returns 0x00 (0000ms, 1123ms total)
T15AC 001:408 JLINK_ReadReg(R0)  returns 0x00000000 (0000ms, 1123ms total)
T15AC 001:408 JLINK_WriteMem(0x20000170, 0x0290 Bytes, ...) - Data: 28 2D 00 20 45 01 00 08 91 1E 00 08 77 1D 00 08 ... -- CPU_WriteMem(656 bytes @ 0x20000170)  returns 0x290 (0009ms, 1132ms total)
T15AC 001:417 JLINK_WriteMem(0x20000400, 0x0170 Bytes, ...) - Data: 03 E0 1D 78 0D 70 49 1C 5B 1C 52 1E F9 D5 A1 42 ... -- CPU_WriteMem(368 bytes @ 0x20000400)  returns 0x170 (0006ms, 1138ms total)
T15AC 001:423 JLINK_WriteReg(R0, 0x08000000)  returns 0x00 (0000ms, 1138ms total)
T15AC 001:423 JLINK_WriteReg(R1, 0x00000400)  returns 0x00 (0000ms, 1138ms total)
T15AC 001:423 JLINK_WriteReg(R2, 0x20000170)  returns 0x00 (0000ms, 1138ms total)
T15AC 001:423 JLINK_WriteReg(R3, 0x00000000)  returns 0x00 (0000ms, 1138ms total)
T15AC 001:423 JLINK_WriteReg(R4, 0x00000000)  returns 0x00 (0000ms, 1138ms total)
T15AC 001:423 JLINK_WriteReg(R5, 0x00000000)  returns 0x00 (0000ms, 1138ms total)
T15AC 001:423 JLINK_WriteReg(R6, 0x00000000)  returns 0x00 (0000ms, 1138ms total)
T15AC 001:423 JLINK_WriteReg(R7, 0x00000000)  returns 0x00 (0000ms, 1138ms total)
T15AC 001:423 JLINK_WriteReg(R8, 0x00000000)  returns 0x00 (0000ms, 1138ms total)
T15AC 001:423 JLINK_WriteReg(R9, 0x2000016C)  returns 0x00 (0000ms, 1138ms total)
T15AC 001:423 JLINK_WriteReg(R10, 0x00000000)  returns 0x00 (0000ms, 1138ms total)
T15AC 001:423 JLINK_WriteReg(R11, 0x00000000)  returns 0x00 (0000ms, 1138ms total)
T15AC 001:423 JLINK_WriteReg(R12, 0x00000000)  returns 0x00 (0000ms, 1138ms total)
T15AC 001:423 JLINK_WriteReg(R13 (SP), 0x20000800)  returns 0x00 (0000ms, 1138ms total)
T15AC 001:423 JLINK_WriteReg(R14, 0x20000001)  returns 0x00 (0000ms, 1138ms total)
T15AC 001:423 JLINK_WriteReg(R15 (PC), 0x200000FA)  returns 0x00 (0000ms, 1138ms total)
T15AC 001:423 JLINK_WriteReg(XPSR, 0x01000000)  returns 0x00 (0000ms, 1138ms total)
T15AC 001:423 JLINK_WriteReg(MSP, 0x20000800)  returns 0x00 (0000ms, 1138ms total)
T15AC 001:423 JLINK_WriteReg(PSP, 0x20000800)  returns 0x00 (0000ms, 1138ms total)
T15AC 001:423 JLINK_WriteReg(CFBP, 0x00000000)  returns 0x00 (0000ms, 1138ms total)
T15AC 001:423 JLINK_SetBPEx(Addr = 0x20000000, Type = 0xFFFFFFF2)  returns 0x00000005 (0000ms, 1138ms total)
T15AC 001:423 JLINK_Go() -- CPU_ReadMem(4 bytes @ 0xE0001000) -- CPU_WriteMem(4 bytes @ 0xE0001000) (0009ms, 1147ms total)
T15AC 001:432 JLINK_IsHalted()  returns FALSE (0002ms, 1149ms total)
T15AC 001:447 JLINK_IsHalted()  returns FALSE (0002ms, 1149ms total)
T15AC 001:450 JLINK_IsHalted()  returns FALSE (0002ms, 1149ms total)
T15AC 001:453 JLINK_IsHalted()  returns FALSE (0002ms, 1149ms total)
T15AC 001:456 JLINK_IsHalted()  returns FALSE (0002ms, 1149ms total)
T15AC 001:459 JLINK_IsHalted()  returns FALSE (0002ms, 1149ms total)
T15AC 001:462 JLINK_IsHalted() -- CPU_ReadMem(2 bytes @ 0x20000000)  returns TRUE (0008ms, 1155ms total)
T15AC 001:470 JLINK_ReadReg(R15 (PC))  returns 0x20000000 (0000ms, 1147ms total)
T15AC 001:470 JLINK_ClrBPEx(BPHandle = 0x00000005)  returns 0x00 (0000ms, 1147ms total)
T15AC 001:470 JLINK_ReadReg(R0)  returns 0x00000000 (0000ms, 1147ms total)
T15AC 001:470 JLINK_WriteMem(0x20000170, 0x0290 Bytes, ...) - Data: 05 F0 D8 FD 1F BD 00 00 08 00 00 20 55 61 72 74 ... -- CPU_WriteMem(656 bytes @ 0x20000170)  returns 0x290 (0009ms, 1156ms total)
T15AC 001:479 JLINK_WriteMem(0x20000400, 0x0170 Bytes, ...) - Data: 70 B5 04 46 25 46 28 78 01 28 0C D1 00 20 06 49 ... -- CPU_WriteMem(368 bytes @ 0x20000400)  returns 0x170 (0006ms, 1162ms total)
T15AC 001:485 JLINK_WriteReg(R0, 0x08000400)  returns 0x00 (0000ms, 1162ms total)
T15AC 001:485 JLINK_WriteReg(R1, 0x00000400)  returns 0x00 (0000ms, 1162ms total)
T15AC 001:485 JLINK_WriteReg(R2, 0x20000170)  returns 0x00 (0000ms, 1162ms total)
T15AC 001:485 JLINK_WriteReg(R3, 0x00000000)  returns 0x00 (0000ms, 1162ms total)
T15AC 001:485 JLINK_WriteReg(R4, 0x00000000)  returns 0x00 (0000ms, 1162ms total)
T15AC 001:485 JLINK_WriteReg(R5, 0x00000000)  returns 0x00 (0000ms, 1162ms total)
T15AC 001:485 JLINK_WriteReg(R6, 0x00000000)  returns 0x00 (0000ms, 1162ms total)
T15AC 001:485 JLINK_WriteReg(R7, 0x00000000)  returns 0x00 (0000ms, 1162ms total)
T15AC 001:485 JLINK_WriteReg(R8, 0x00000000)  returns 0x00 (0000ms, 1162ms total)
T15AC 001:485 JLINK_WriteReg(R9, 0x2000016C)  returns 0x00 (0000ms, 1162ms total)
T15AC 001:485 JLINK_WriteReg(R10, 0x00000000)  returns 0x00 (0000ms, 1162ms total)
T15AC 001:485 JLINK_WriteReg(R11, 0x00000000)  returns 0x00 (0000ms, 1162ms total)
T15AC 001:485 JLINK_WriteReg(R12, 0x00000000)  returns 0x00 (0000ms, 1162ms total)
T15AC 001:485 JLINK_WriteReg(R13 (SP), 0x20000800)  returns 0x00 (0000ms, 1162ms total)
T15AC 001:485 JLINK_WriteReg(R14, 0x20000001)  returns 0x00 (0000ms, 1162ms total)
T15AC 001:485 JLINK_WriteReg(R15 (PC), 0x200000FA)  returns 0x00 (0000ms, 1162ms total)
T15AC 001:485 JLINK_WriteReg(XPSR, 0x01000000)  returns 0x00 (0000ms, 1162ms total)
T15AC 001:485 JLINK_WriteReg(MSP, 0x20000800)  returns 0x00 (0000ms, 1162ms total)
T15AC 001:485 JLINK_WriteReg(PSP, 0x20000800)  returns 0x00 (0000ms, 1162ms total)
T15AC 001:485 JLINK_WriteReg(CFBP, 0x00000000)  returns 0x00 (0000ms, 1162ms total)
T15AC 001:485 JLINK_SetBPEx(Addr = 0x20000000, Type = 0xFFFFFFF2)  returns 0x00000006 (0000ms, 1162ms total)
T15AC 001:485 JLINK_Go() -- CPU_ReadMem(4 bytes @ 0xE0001000) -- CPU_WriteMem(4 bytes @ 0xE0001000) (0009ms, 1171ms total)
T15AC 001:494 JLINK_IsHalted()  returns FALSE (0002ms, 1173ms total)
T15AC 001:497 JLINK_IsHalted()  returns FALSE (0002ms, 1173ms total)
T15AC 001:500 JLINK_IsHalted()  returns FALSE (0002ms, 1173ms total)
T15AC 001:503 JLINK_IsHalted()  returns FALSE (0002ms, 1173ms total)
T15AC 001:506 JLINK_IsHalted()  returns FALSE (0002ms, 1173ms total)
T15AC 001:509 JLINK_IsHalted()  returns FALSE (0002ms, 1173ms total)
T15AC 001:514 JLINK_IsHalted()  returns FALSE (0002ms, 1173ms total)
T15AC 001:517 JLINK_IsHalted()  returns FALSE (0002ms, 1173ms total)
T15AC 001:520 JLINK_IsHalted()  returns FALSE (0002ms, 1173ms total)
T15AC 001:523 JLINK_IsHalted() -- CPU_ReadMem(2 bytes @ 0x20000000)  returns TRUE (0008ms, 1179ms total)
T15AC 001:531 JLINK_ReadReg(R15 (PC))  returns 0x20000000 (0000ms, 1171ms total)
T15AC 001:531 JLINK_ClrBPEx(BPHandle = 0x00000006)  returns 0x00 (0000ms, 1171ms total)
T15AC 001:531 JLINK_ReadReg(R0)  returns 0x00000000 (0000ms, 1171ms total)
T15AC 001:531 JLINK_WriteMem(0x20000170, 0x0290 Bytes, ...) - Data: 09 B0 30 BD 01 20 FB E7 14 00 00 20 4F 4B 00 00 ... -- CPU_WriteMem(656 bytes @ 0x20000170)  returns 0x290 (0009ms, 1180ms total)
T15AC 001:540 JLINK_WriteMem(0x20000400, 0x0170 Bytes, ...) - Data: 01 F0 4A FC C4 B2 20 2C 00 DD 20 24 0D 49 09 68 ... -- CPU_WriteMem(368 bytes @ 0x20000400)  returns 0x170 (0006ms, 1186ms total)
T15AC 001:546 JLINK_WriteReg(R0, 0x08000800)  returns 0x00 (0000ms, 1186ms total)
T15AC 001:546 JLINK_WriteReg(R1, 0x00000400)  returns 0x00 (0000ms, 1186ms total)
T15AC 001:546 JLINK_WriteReg(R2, 0x20000170)  returns 0x00 (0000ms, 1186ms total)
T15AC 001:546 JLINK_WriteReg(R3, 0x00000000)  returns 0x00 (0000ms, 1186ms total)
T15AC 001:546 JLINK_WriteReg(R4, 0x00000000)  returns 0x00 (0000ms, 1186ms total)
T15AC 001:546 JLINK_WriteReg(R5, 0x00000000)  returns 0x00 (0000ms, 1186ms total)
T15AC 001:546 JLINK_WriteReg(R6, 0x00000000)  returns 0x00 (0000ms, 1186ms total)
T15AC 001:546 JLINK_WriteReg(R7, 0x00000000)  returns 0x00 (0000ms, 1186ms total)
T15AC 001:546 JLINK_WriteReg(R8, 0x00000000)  returns 0x00 (0000ms, 1186ms total)
T15AC 001:546 JLINK_WriteReg(R9, 0x2000016C)  returns 0x00 (0000ms, 1186ms total)
T15AC 001:546 JLINK_WriteReg(R10, 0x00000000)  returns 0x00 (0000ms, 1186ms total)
T15AC 001:546 JLINK_WriteReg(R11, 0x00000000)  returns 0x00 (0000ms, 1186ms total)
T15AC 001:546 JLINK_WriteReg(R12, 0x00000000)  returns 0x00 (0000ms, 1186ms total)
T15AC 001:546 JLINK_WriteReg(R13 (SP), 0x20000800)  returns 0x00 (0000ms, 1186ms total)
T15AC 001:546 JLINK_WriteReg(R14, 0x20000001)  returns 0x00 (0000ms, 1186ms total)
T15AC 001:546 JLINK_WriteReg(R15 (PC), 0x200000FA)  returns 0x00 (0000ms, 1186ms total)
T15AC 001:546 JLINK_WriteReg(XPSR, 0x01000000)  returns 0x00 (0000ms, 1186ms total)
T15AC 001:546 JLINK_WriteReg(MSP, 0x20000800)  returns 0x00 (0000ms, 1186ms total)
T15AC 001:546 JLINK_WriteReg(PSP, 0x20000800)  returns 0x00 (0000ms, 1186ms total)
T15AC 001:546 JLINK_WriteReg(CFBP, 0x00000000)  returns 0x00 (0000ms, 1186ms total)
T15AC 001:546 JLINK_SetBPEx(Addr = 0x20000000, Type = 0xFFFFFFF2)  returns 0x00000007 (0000ms, 1186ms total)
T15AC 001:546 JLINK_Go() -- CPU_ReadMem(4 bytes @ 0xE0001000) -- CPU_WriteMem(4 bytes @ 0xE0001000) (0009ms, 1195ms total)
T15AC 001:555 JLINK_IsHalted()  returns FALSE (0002ms, 1197ms total)
T15AC 001:564 JLINK_IsHalted()  returns FALSE (0002ms, 1197ms total)
T15AC 001:567 JLINK_IsHalted()  returns FALSE (0002ms, 1197ms total)
T15AC 001:570 JLINK_IsHalted()  returns FALSE (0002ms, 1197ms total)
T15AC 001:573 JLINK_IsHalted()  returns FALSE (0002ms, 1197ms total)
T15AC 001:576 JLINK_IsHalted()  returns FALSE (0002ms, 1197ms total)
T15AC 001:579 JLINK_IsHalted()  returns FALSE (0002ms, 1197ms total)
T15AC 001:582 JLINK_IsHalted()  returns FALSE (0002ms, 1197ms total)
T15AC 001:585 JLINK_IsHalted() -- CPU_ReadMem(2 bytes @ 0x20000000)  returns TRUE (0008ms, 1203ms total)
T15AC 001:593 JLINK_ReadReg(R15 (PC))  returns 0x20000000 (0000ms, 1195ms total)
T15AC 001:593 JLINK_ClrBPEx(BPHandle = 0x00000007)  returns 0x00 (0000ms, 1195ms total)
T15AC 001:593 JLINK_ReadReg(R0)  returns 0x00000000 (0000ms, 1195ms total)
T15AC 001:593 JLINK_WriteMem(0x20000170, 0x0290 Bytes, ...) - Data: E0 0A 00 20 62 6C 65 20 63 66 67 20 64 65 66 61 ... -- CPU_WriteMem(656 bytes @ 0x20000170)  returns 0x290 (0009ms, 1204ms total)
T15AC 001:602 JLINK_WriteMem(0x20000400, 0x0170 Bytes, ...) - Data: 03 22 12 07 91 43 03 4A 51 60 11 46 49 68 01 43 ... -- CPU_WriteMem(368 bytes @ 0x20000400)  returns 0x170 (0006ms, 1210ms total)
T15AC 001:608 JLINK_WriteReg(R0, 0x08000C00)  returns 0x00 (0000ms, 1210ms total)
T15AC 001:608 JLINK_WriteReg(R1, 0x00000400)  returns 0x00 (0000ms, 1210ms total)
T15AC 001:608 JLINK_WriteReg(R2, 0x20000170)  returns 0x00 (0000ms, 1210ms total)
T15AC 001:608 JLINK_WriteReg(R3, 0x00000000)  returns 0x00 (0000ms, 1210ms total)
T15AC 001:608 JLINK_WriteReg(R4, 0x00000000)  returns 0x00 (0000ms, 1210ms total)
T15AC 001:608 JLINK_WriteReg(R5, 0x00000000)  returns 0x00 (0000ms, 1210ms total)
T15AC 001:608 JLINK_WriteReg(R6, 0x00000000)  returns 0x00 (0000ms, 1210ms total)
T15AC 001:608 JLINK_WriteReg(R7, 0x00000000)  returns 0x00 (0000ms, 1210ms total)
T15AC 001:608 JLINK_WriteReg(R8, 0x00000000)  returns 0x00 (0000ms, 1210ms total)
T15AC 001:608 JLINK_WriteReg(R9, 0x2000016C)  returns 0x00 (0000ms, 1210ms total)
T15AC 001:608 JLINK_WriteReg(R10, 0x00000000)  returns 0x00 (0000ms, 1210ms total)
T15AC 001:608 JLINK_WriteReg(R11, 0x00000000)  returns 0x00 (0000ms, 1210ms total)
T15AC 001:608 JLINK_WriteReg(R12, 0x00000000)  returns 0x00 (0000ms, 1210ms total)
T15AC 001:608 JLINK_WriteReg(R13 (SP), 0x20000800)  returns 0x00 (0000ms, 1210ms total)
T15AC 001:608 JLINK_WriteReg(R14, 0x20000001)  returns 0x00 (0000ms, 1210ms total)
T15AC 001:608 JLINK_WriteReg(R15 (PC), 0x200000FA)  returns 0x00 (0000ms, 1210ms total)
T15AC 001:608 JLINK_WriteReg(XPSR, 0x01000000)  returns 0x00 (0000ms, 1210ms total)
T15AC 001:608 JLINK_WriteReg(MSP, 0x20000800)  returns 0x00 (0000ms, 1210ms total)
T15AC 001:608 JLINK_WriteReg(PSP, 0x20000800)  returns 0x00 (0000ms, 1210ms total)
T15AC 001:608 JLINK_WriteReg(CFBP, 0x00000000)  returns 0x00 (0000ms, 1210ms total)
T15AC 001:608 JLINK_SetBPEx(Addr = 0x20000000, Type = 0xFFFFFFF2)  returns 0x00000008 (0000ms, 1210ms total)
T15AC 001:608 JLINK_Go() -- CPU_ReadMem(4 bytes @ 0xE0001000) -- CPU_WriteMem(4 bytes @ 0xE0001000) (0009ms, 1219ms total)
T15AC 001:617 JLINK_IsHalted()  returns FALSE (0002ms, 1221ms total)
T15AC 001:620 JLINK_IsHalted()  returns FALSE (0002ms, 1221ms total)
T15AC 001:623 JLINK_IsHalted()  returns FALSE (0002ms, 1221ms total)
T15AC 001:626 JLINK_IsHalted()  returns FALSE (0003ms, 1222ms total)
T15AC 001:630 JLINK_IsHalted()  returns FALSE (0002ms, 1221ms total)
T15AC 001:633 JLINK_IsHalted()  returns FALSE (0003ms, 1222ms total)
T15AC 001:639 JLINK_IsHalted()  returns FALSE (0002ms, 1221ms total)
T15AC 001:642 JLINK_IsHalted()  returns FALSE (0002ms, 1221ms total)
T15AC 001:645 JLINK_IsHalted() -- CPU_ReadMem(2 bytes @ 0x20000000)  returns TRUE (0009ms, 1228ms total)
T15AC 001:654 JLINK_ReadReg(R15 (PC))  returns 0x20000000 (0000ms, 1219ms total)
T15AC 001:654 JLINK_ClrBPEx(BPHandle = 0x00000008)  returns 0x00 (0000ms, 1219ms total)
T15AC 001:654 JLINK_ReadReg(R0)  returns 0x00000000 (0000ms, 1219ms total)
T15AC 001:654 JLINK_WriteMem(0x20000170, 0x0290 Bytes, ...) - Data: 01 43 80 22 11 43 47 4A 11 60 7F E0 A8 00 45 49 ... -- CPU_WriteMem(656 bytes @ 0x20000170)  returns 0x290 (0009ms, 1228ms total)
T15AC 001:663 JLINK_WriteMem(0x20000400, 0x0170 Bytes, ...) - Data: 20 82 68 46 01 78 22 8A 50 1C 20 82 E0 68 81 54 ... -- CPU_WriteMem(368 bytes @ 0x20000400)  returns 0x170 (0006ms, 1234ms total)
T15AC 001:669 JLINK_WriteReg(R0, 0x08001000)  returns 0x00 (0000ms, 1234ms total)
T15AC 001:669 JLINK_WriteReg(R1, 0x00000400)  returns 0x00 (0000ms, 1234ms total)
T15AC 001:669 JLINK_WriteReg(R2, 0x20000170)  returns 0x00 (0000ms, 1234ms total)
T15AC 001:669 JLINK_WriteReg(R3, 0x00000000)  returns 0x00 (0000ms, 1234ms total)
T15AC 001:669 JLINK_WriteReg(R4, 0x00000000)  returns 0x00 (0000ms, 1234ms total)
T15AC 001:669 JLINK_WriteReg(R5, 0x00000000)  returns 0x00 (0000ms, 1234ms total)
T15AC 001:669 JLINK_WriteReg(R6, 0x00000000)  returns 0x00 (0000ms, 1234ms total)
T15AC 001:669 JLINK_WriteReg(R7, 0x00000000)  returns 0x00 (0000ms, 1234ms total)
T15AC 001:669 JLINK_WriteReg(R8, 0x00000000)  returns 0x00 (0000ms, 1234ms total)
T15AC 001:669 JLINK_WriteReg(R9, 0x2000016C)  returns 0x00 (0000ms, 1234ms total)
T15AC 001:669 JLINK_WriteReg(R10, 0x00000000)  returns 0x00 (0001ms, 1235ms total)
T15AC 001:670 JLINK_WriteReg(R11, 0x00000000)  returns 0x00 (0000ms, 1235ms total)
T15AC 001:670 JLINK_WriteReg(R12, 0x00000000)  returns 0x00 (0000ms, 1235ms total)
T15AC 001:670 JLINK_WriteReg(R13 (SP), 0x20000800)  returns 0x00 (0000ms, 1235ms total)
T15AC 001:670 JLINK_WriteReg(R14, 0x20000001)  returns 0x00 (0000ms, 1235ms total)
T15AC 001:670 JLINK_WriteReg(R15 (PC), 0x200000FA)  returns 0x00 (0000ms, 1235ms total)
T15AC 001:670 JLINK_WriteReg(XPSR, 0x01000000)  returns 0x00 (0000ms, 1235ms total)
T15AC 001:670 JLINK_WriteReg(MSP, 0x20000800)  returns 0x00 (0000ms, 1235ms total)
T15AC 001:670 JLINK_WriteReg(PSP, 0x20000800)  returns 0x00 (0000ms, 1235ms total)
T15AC 001:670 JLINK_WriteReg(CFBP, 0x00000000)  returns 0x00 (0000ms, 1235ms total)
T15AC 001:670 JLINK_SetBPEx(Addr = 0x20000000, Type = 0xFFFFFFF2)  returns 0x00000009 (0000ms, 1235ms total)
T15AC 001:670 JLINK_Go() -- CPU_ReadMem(4 bytes @ 0xE0001000) -- CPU_WriteMem(4 bytes @ 0xE0001000) (0008ms, 1243ms total)
T15AC 001:678 JLINK_IsHalted()  returns FALSE (0002ms, 1245ms total)
T15AC 001:681 JLINK_IsHalted()  returns FALSE (0002ms, 1245ms total)
T15AC 001:684 JLINK_IsHalted()  returns FALSE (0002ms, 1245ms total)
T15AC 001:687 JLINK_IsHalted()  returns FALSE (0002ms, 1245ms total)
T15AC 001:690 JLINK_IsHalted()  returns FALSE (0002ms, 1245ms total)
T15AC 001:693 JLINK_IsHalted()  returns FALSE (0002ms, 1245ms total)
T15AC 001:696 JLINK_IsHalted()  returns FALSE (0002ms, 1245ms total)
T15AC 001:699 JLINK_IsHalted()  returns FALSE (0002ms, 1245ms total)
T15AC 001:702 JLINK_IsHalted()  returns FALSE (0002ms, 1245ms total)
T15AC 001:705 JLINK_IsHalted()  returns FALSE (0002ms, 1245ms total)
T15AC 001:708 JLINK_IsHalted() -- CPU_ReadMem(2 bytes @ 0x20000000)  returns TRUE (0008ms, 1251ms total)
T15AC 001:716 JLINK_ReadReg(R15 (PC))  returns 0x20000000 (0000ms, 1243ms total)
T15AC 001:716 JLINK_ClrBPEx(BPHandle = 0x00000009)  returns 0x00 (0000ms, 1243ms total)
T15AC 001:716 JLINK_ReadReg(R0)  returns 0x00000000 (0000ms, 1243ms total)
T15AC 001:717 JLINK_WriteMem(0x20000170, 0x0290 Bytes, ...) - Data: 70 B5 06 46 0D 46 80 20 28 40 80 28 07 D1 68 06 ... -- CPU_WriteMem(656 bytes @ 0x20000170)  returns 0x290 (0009ms, 1252ms total)
T15AC 001:726 JLINK_WriteMem(0x20000400, 0x0170 Bytes, ...) - Data: A0 7A 00 28 05 D1 00 9A 91 B2 20 78 00 F0 88 FF ... -- CPU_WriteMem(368 bytes @ 0x20000400)  returns 0x170 (0006ms, 1258ms total)
T15AC 001:732 JLINK_WriteReg(R0, 0x08001400)  returns 0x00 (0000ms, 1258ms total)
T15AC 001:732 JLINK_WriteReg(R1, 0x00000400)  returns 0x00 (0000ms, 1258ms total)
T15AC 001:732 JLINK_WriteReg(R2, 0x20000170)  returns 0x00 (0000ms, 1258ms total)
T15AC 001:732 JLINK_WriteReg(R3, 0x00000000)  returns 0x00 (0000ms, 1258ms total)
T15AC 001:732 JLINK_WriteReg(R4, 0x00000000)  returns 0x00 (0000ms, 1258ms total)
T15AC 001:732 JLINK_WriteReg(R5, 0x00000000)  returns 0x00 (0000ms, 1258ms total)
T15AC 001:732 JLINK_WriteReg(R6, 0x00000000)  returns 0x00 (0000ms, 1258ms total)
T15AC 001:732 JLINK_WriteReg(R7, 0x00000000)  returns 0x00 (0000ms, 1258ms total)
T15AC 001:732 JLINK_WriteReg(R8, 0x00000000)  returns 0x00 (0000ms, 1258ms total)
T15AC 001:732 JLINK_WriteReg(R9, 0x2000016C)  returns 0x00 (0000ms, 1258ms total)
T15AC 001:732 JLINK_WriteReg(R10, 0x00000000)  returns 0x00 (0000ms, 1258ms total)
T15AC 001:732 JLINK_WriteReg(R11, 0x00000000)  returns 0x00 (0000ms, 1258ms total)
T15AC 001:732 JLINK_WriteReg(R12, 0x00000000)  returns 0x00 (0000ms, 1258ms total)
T15AC 001:732 JLINK_WriteReg(R13 (SP), 0x20000800)  returns 0x00 (0000ms, 1258ms total)
T15AC 001:732 JLINK_WriteReg(R14, 0x20000001)  returns 0x00 (0000ms, 1258ms total)
T15AC 001:732 JLINK_WriteReg(R15 (PC), 0x200000FA)  returns 0x00 (0000ms, 1258ms total)
T15AC 001:732 JLINK_WriteReg(XPSR, 0x01000000)  returns 0x00 (0000ms, 1258ms total)
T15AC 001:732 JLINK_WriteReg(MSP, 0x20000800)  returns 0x00 (0000ms, 1258ms total)
T15AC 001:732 JLINK_WriteReg(PSP, 0x20000800)  returns 0x00 (0000ms, 1258ms total)
T15AC 001:732 JLINK_WriteReg(CFBP, 0x00000000)  returns 0x00 (0000ms, 1258ms total)
T15AC 001:732 JLINK_SetBPEx(Addr = 0x20000000, Type = 0xFFFFFFF2)  returns 0x0000000A (0000ms, 1258ms total)
T15AC 001:732 JLINK_Go() -- CPU_ReadMem(4 bytes @ 0xE0001000) -- CPU_WriteMem(4 bytes @ 0xE0001000) (0009ms, 1267ms total)
T15AC 001:741 JLINK_IsHalted()  returns FALSE (0003ms, 1270ms total)
T15AC 001:745 JLINK_IsHalted()  returns FALSE (0002ms, 1269ms total)
T15AC 001:748 JLINK_IsHalted()  returns FALSE (0002ms, 1269ms total)
T15AC 001:753 JLINK_IsHalted()  returns FALSE (0002ms, 1269ms total)
T15AC 001:756 JLINK_IsHalted()  returns FALSE (0002ms, 1269ms total)
T15AC 001:759 JLINK_IsHalted()  returns FALSE (0002ms, 1269ms total)
T15AC 001:762 JLINK_IsHalted()  returns FALSE (0002ms, 1269ms total)
T15AC 001:765 JLINK_IsHalted()  returns FALSE (0002ms, 1269ms total)
T15AC 001:768 JLINK_IsHalted()  returns FALSE (0002ms, 1269ms total)
T15AC 001:771 JLINK_IsHalted() -- CPU_ReadMem(2 bytes @ 0x20000000)  returns TRUE (0009ms, 1276ms total)
T15AC 001:780 JLINK_ReadReg(R15 (PC))  returns 0x20000000 (0000ms, 1267ms total)
T15AC 001:780 JLINK_ClrBPEx(BPHandle = 0x0000000A)  returns 0x00 (0000ms, 1267ms total)
T15AC 001:780 JLINK_ReadReg(R0)  returns 0x00000000 (0000ms, 1267ms total)
T15AC 001:781 JLINK_WriteMem(0x20000170, 0x0290 Bytes, ...) - Data: 35 FF 1E E0 00 20 01 90 02 9B 9A B2 61 78 20 78 ... -- CPU_WriteMem(656 bytes @ 0x20000170)  returns 0x290 (0010ms, 1277ms total)
T15AC 001:791 JLINK_WriteMem(0x20000400, 0x0170 Bytes, ...) - Data: 00 20 02 40 03 48 00 69 80 21 08 43 01 49 08 61 ... -- CPU_WriteMem(368 bytes @ 0x20000400)  returns 0x170 (0006ms, 1283ms total)
T15AC 001:797 JLINK_WriteReg(R0, 0x08001800)  returns 0x00 (0000ms, 1283ms total)
T15AC 001:797 JLINK_WriteReg(R1, 0x00000400)  returns 0x00 (0000ms, 1283ms total)
T15AC 001:797 JLINK_WriteReg(R2, 0x20000170)  returns 0x00 (0000ms, 1283ms total)
T15AC 001:797 JLINK_WriteReg(R3, 0x00000000)  returns 0x00 (0000ms, 1283ms total)
T15AC 001:797 JLINK_WriteReg(R4, 0x00000000)  returns 0x00 (0000ms, 1283ms total)
T15AC 001:797 JLINK_WriteReg(R5, 0x00000000)  returns 0x00 (0000ms, 1283ms total)
T15AC 001:797 JLINK_WriteReg(R6, 0x00000000)  returns 0x00 (0000ms, 1283ms total)
T15AC 001:797 JLINK_WriteReg(R7, 0x00000000)  returns 0x00 (0000ms, 1283ms total)
T15AC 001:797 JLINK_WriteReg(R8, 0x00000000)  returns 0x00 (0000ms, 1283ms total)
T15AC 001:797 JLINK_WriteReg(R9, 0x2000016C)  returns 0x00 (0000ms, 1283ms total)
T15AC 001:797 JLINK_WriteReg(R10, 0x00000000)  returns 0x00 (0000ms, 1283ms total)
T15AC 001:797 JLINK_WriteReg(R11, 0x00000000)  returns 0x00 (0000ms, 1283ms total)
T15AC 001:797 JLINK_WriteReg(R12, 0x00000000)  returns 0x00 (0000ms, 1283ms total)
T15AC 001:797 JLINK_WriteReg(R13 (SP), 0x20000800)  returns 0x00 (0000ms, 1283ms total)
T15AC 001:797 JLINK_WriteReg(R14, 0x20000001)  returns 0x00 (0000ms, 1283ms total)
T15AC 001:797 JLINK_WriteReg(R15 (PC), 0x200000FA)  returns 0x00 (0000ms, 1283ms total)
T15AC 001:797 JLINK_WriteReg(XPSR, 0x01000000)  returns 0x00 (0000ms, 1283ms total)
T15AC 001:797 JLINK_WriteReg(MSP, 0x20000800)  returns 0x00 (0000ms, 1283ms total)
T15AC 001:797 JLINK_WriteReg(PSP, 0x20000800)  returns 0x00 (0000ms, 1283ms total)
T15AC 001:797 JLINK_WriteReg(CFBP, 0x00000000)  returns 0x00 (0000ms, 1283ms total)
T15AC 001:797 JLINK_SetBPEx(Addr = 0x20000000, Type = 0xFFFFFFF2)  returns 0x0000000B (0000ms, 1283ms total)
T15AC 001:797 JLINK_Go() -- CPU_ReadMem(4 bytes @ 0xE0001000) -- CPU_WriteMem(4 bytes @ 0xE0001000) (0010ms, 1293ms total)
T15AC 001:808 JLINK_IsHalted()  returns FALSE (0002ms, 1295ms total)
T15AC 001:811 JLINK_IsHalted()  returns FALSE (0002ms, 1295ms total)
T15AC 001:814 JLINK_IsHalted()  returns FALSE (0002ms, 1295ms total)
T15AC 001:817 JLINK_IsHalted()  returns FALSE (0002ms, 1295ms total)
T15AC 001:820 JLINK_IsHalted()  returns FALSE (0002ms, 1295ms total)
T15AC 001:828 JLINK_IsHalted()  returns FALSE (0002ms, 1295ms total)
T15AC 001:831 JLINK_IsHalted()  returns FALSE (0002ms, 1295ms total)
T15AC 001:834 JLINK_IsHalted()  returns FALSE (0002ms, 1295ms total)
T15AC 001:837 JLINK_IsHalted() -- CPU_ReadMem(2 bytes @ 0x20000000)  returns TRUE (0008ms, 1301ms total)
T15AC 001:845 JLINK_ReadReg(R15 (PC))  returns 0x20000000 (0000ms, 1293ms total)
T15AC 001:845 JLINK_ClrBPEx(BPHandle = 0x0000000B)  returns 0x00 (0000ms, 1293ms total)
T15AC 001:845 JLINK_ReadReg(R0)  returns 0x00000000 (0000ms, 1293ms total)
T15AC 001:846 JLINK_WriteMem(0x20000170, 0x0290 Bytes, ...) - Data: 8E 40 B6 B2 35 43 85 80 05 68 4F 00 03 26 BE 40 ... -- CPU_WriteMem(656 bytes @ 0x20000170)  returns 0x290 (0010ms, 1303ms total)
T15AC 001:856 JLINK_WriteMem(0x20000400, 0x0170 Bytes, ...) - Data: 70 47 00 00 00 21 82 78 00 2A 27 D0 18 4A 03 23 ... -- CPU_WriteMem(368 bytes @ 0x20000400)  returns 0x170 (0006ms, 1309ms total)
T15AC 001:862 JLINK_WriteReg(R0, 0x08001C00)  returns 0x00 (0000ms, 1309ms total)
T15AC 001:862 JLINK_WriteReg(R1, 0x00000400)  returns 0x00 (0000ms, 1309ms total)
T15AC 001:862 JLINK_WriteReg(R2, 0x20000170)  returns 0x00 (0000ms, 1309ms total)
T15AC 001:862 JLINK_WriteReg(R3, 0x00000000)  returns 0x00 (0000ms, 1309ms total)
T15AC 001:862 JLINK_WriteReg(R4, 0x00000000)  returns 0x00 (0000ms, 1309ms total)
T15AC 001:862 JLINK_WriteReg(R5, 0x00000000)  returns 0x00 (0000ms, 1309ms total)
T15AC 001:862 JLINK_WriteReg(R6, 0x00000000)  returns 0x00 (0000ms, 1309ms total)
T15AC 001:862 JLINK_WriteReg(R7, 0x00000000)  returns 0x00 (0000ms, 1309ms total)
T15AC 001:862 JLINK_WriteReg(R8, 0x00000000)  returns 0x00 (0000ms, 1309ms total)
T15AC 001:862 JLINK_WriteReg(R9, 0x2000016C)  returns 0x00 (0000ms, 1309ms total)
T15AC 001:862 JLINK_WriteReg(R10, 0x00000000)  returns 0x00 (0000ms, 1309ms total)
T15AC 001:862 JLINK_WriteReg(R11, 0x00000000)  returns 0x00 (0000ms, 1309ms total)
T15AC 001:862 JLINK_WriteReg(R12, 0x00000000)  returns 0x00 (0000ms, 1309ms total)
T15AC 001:862 JLINK_WriteReg(R13 (SP), 0x20000800)  returns 0x00 (0000ms, 1309ms total)
T15AC 001:862 JLINK_WriteReg(R14, 0x20000001)  returns 0x00 (0000ms, 1309ms total)
T15AC 001:862 JLINK_WriteReg(R15 (PC), 0x200000FA)  returns 0x00 (0000ms, 1309ms total)
T15AC 001:862 JLINK_WriteReg(XPSR, 0x01000000)  returns 0x00 (0000ms, 1309ms total)
T15AC 001:862 JLINK_WriteReg(MSP, 0x20000800)  returns 0x00 (0000ms, 1309ms total)
T15AC 001:862 JLINK_WriteReg(PSP, 0x20000800)  returns 0x00 (0000ms, 1309ms total)
T15AC 001:862 JLINK_WriteReg(CFBP, 0x00000000)  returns 0x00 (0000ms, 1309ms total)
T15AC 001:862 JLINK_SetBPEx(Addr = 0x20000000, Type = 0xFFFFFFF2)  returns 0x0000000C (0000ms, 1309ms total)
T15AC 001:862 JLINK_Go() -- CPU_ReadMem(4 bytes @ 0xE0001000) -- CPU_WriteMem(4 bytes @ 0xE0001000) (0010ms, 1319ms total)
T15AC 001:872 JLINK_IsHalted()  returns FALSE (0002ms, 1321ms total)
T15AC 001:881 JLINK_IsHalted()  returns FALSE (0003ms, 1322ms total)
T15AC 001:885 JLINK_IsHalted()  returns FALSE (0002ms, 1321ms total)
T15AC 001:889 JLINK_IsHalted()  returns FALSE (0002ms, 1321ms total)
T15AC 001:892 JLINK_IsHalted()  returns FALSE (0002ms, 1321ms total)
T15AC 001:895 JLINK_IsHalted()  returns FALSE (0002ms, 1321ms total)
T15AC 001:898 JLINK_IsHalted()  returns FALSE (0002ms, 1321ms total)
T15AC 001:901 JLINK_IsHalted() -- CPU_ReadMem(2 bytes @ 0x20000000)  returns TRUE (0008ms, 1327ms total)
T15AC 001:909 JLINK_ReadReg(R15 (PC))  returns 0x20000000 (0000ms, 1319ms total)
T15AC 001:909 JLINK_ClrBPEx(BPHandle = 0x0000000C)  returns 0x00 (0000ms, 1319ms total)
T15AC 001:909 JLINK_ReadReg(R0)  returns 0x00000000 (0000ms, 1319ms total)
T15AC 001:910 JLINK_WriteMem(0x20000170, 0x0290 Bytes, ...) - Data: 28 E0 7C 48 40 68 0F 21 89 04 08 40 06 46 79 48 ... -- CPU_WriteMem(656 bytes @ 0x20000170)  returns 0x290 (0009ms, 1328ms total)
T15AC 001:919 JLINK_WriteMem(0x20000400, 0x0170 Bytes, ...) - Data: 08 46 40 78 00 28 01 D1 04 20 08 70 2B E0 19 48 ... -- CPU_WriteMem(368 bytes @ 0x20000400)  returns 0x170 (0006ms, 1334ms total)
T15AC 001:925 JLINK_WriteReg(R0, 0x08002000)  returns 0x00 (0000ms, 1334ms total)
T15AC 001:925 JLINK_WriteReg(R1, 0x00000400)  returns 0x00 (0000ms, 1334ms total)
T15AC 001:925 JLINK_WriteReg(R2, 0x20000170)  returns 0x00 (0000ms, 1334ms total)
T15AC 001:925 JLINK_WriteReg(R3, 0x00000000)  returns 0x00 (0000ms, 1334ms total)
T15AC 001:925 JLINK_WriteReg(R4, 0x00000000)  returns 0x00 (0000ms, 1334ms total)
T15AC 001:925 JLINK_WriteReg(R5, 0x00000000)  returns 0x00 (0000ms, 1334ms total)
T15AC 001:925 JLINK_WriteReg(R6, 0x00000000)  returns 0x00 (0000ms, 1334ms total)
T15AC 001:925 JLINK_WriteReg(R7, 0x00000000)  returns 0x00 (0000ms, 1334ms total)
T15AC 001:925 JLINK_WriteReg(R8, 0x00000000)  returns 0x00 (0000ms, 1334ms total)
T15AC 001:925 JLINK_WriteReg(R9, 0x2000016C)  returns 0x00 (0000ms, 1334ms total)
T15AC 001:925 JLINK_WriteReg(R10, 0x00000000)  returns 0x00 (0000ms, 1334ms total)
T15AC 001:925 JLINK_WriteReg(R11, 0x00000000)  returns 0x00 (0000ms, 1334ms total)
T15AC 001:925 JLINK_WriteReg(R12, 0x00000000)  returns 0x00 (0000ms, 1334ms total)
T15AC 001:925 JLINK_WriteReg(R13 (SP), 0x20000800)  returns 0x00 (0000ms, 1334ms total)
T15AC 001:925 JLINK_WriteReg(R14, 0x20000001)  returns 0x00 (0000ms, 1334ms total)
T15AC 001:925 JLINK_WriteReg(R15 (PC), 0x200000FA)  returns 0x00 (0000ms, 1334ms total)
T15AC 001:925 JLINK_WriteReg(XPSR, 0x01000000)  returns 0x00 (0000ms, 1334ms total)
T15AC 001:925 JLINK_WriteReg(MSP, 0x20000800)  returns 0x00 (0000ms, 1334ms total)
T15AC 001:925 JLINK_WriteReg(PSP, 0x20000800)  returns 0x00 (0000ms, 1334ms total)
T15AC 001:925 JLINK_WriteReg(CFBP, 0x00000000)  returns 0x00 (0000ms, 1334ms total)
T15AC 001:925 JLINK_SetBPEx(Addr = 0x20000000, Type = 0xFFFFFFF2)  returns 0x0000000D (0000ms, 1334ms total)
T15AC 001:925 JLINK_Go() -- CPU_ReadMem(4 bytes @ 0xE0001000) -- CPU_WriteMem(4 bytes @ 0xE0001000) (0010ms, 1344ms total)
T15AC 001:935 JLINK_IsHalted()  returns FALSE (0003ms, 1347ms total)
T15AC 001:942 JLINK_IsHalted()  returns FALSE (0003ms, 1347ms total)
T15AC 001:946 JLINK_IsHalted()  returns FALSE (0002ms, 1346ms total)
T15AC 001:949 JLINK_IsHalted()  returns FALSE (0002ms, 1346ms total)
T15AC 001:952 JLINK_IsHalted()  returns FALSE (0002ms, 1346ms total)
T15AC 001:955 JLINK_IsHalted()  returns FALSE (0002ms, 1346ms total)
T15AC 001:958 JLINK_IsHalted()  returns FALSE (0002ms, 1346ms total)
T15AC 001:961 JLINK_IsHalted()  returns FALSE (0002ms, 1346ms total)
T15AC 001:969 JLINK_IsHalted() -- CPU_ReadMem(2 bytes @ 0x20000000)  returns TRUE (0010ms, 1354ms total)
T15AC 001:979 JLINK_ReadReg(R15 (PC))  returns 0x20000000 (0000ms, 1344ms total)
T15AC 001:979 JLINK_ClrBPEx(BPHandle = 0x0000000D)  returns 0x00 (0000ms, 1344ms total)
T15AC 001:979 JLINK_ReadReg(R0)  returns 0x00000000 (0000ms, 1344ms total)
T15AC 001:980 JLINK_WriteMem(0x20000170, 0x0290 Bytes, ...) - Data: 0F 46 15 46 00 26 20 46 FF F7 EE FF A8 42 00 DA ... -- CPU_WriteMem(656 bytes @ 0x20000170)  returns 0x290 (0009ms, 1353ms total)
T15AC 001:989 JLINK_WriteMem(0x20000400, 0x0170 Bytes, ...) - Data: 1B 68 0D 4C 23 40 1A 46 10 23 0B 40 00 2B 01 D0 ... -- CPU_WriteMem(368 bytes @ 0x20000400)  returns 0x170 (0007ms, 1360ms total)
T15AC 001:996 JLINK_WriteReg(R0, 0x08002400)  returns 0x00 (0000ms, 1360ms total)
T15AC 001:996 JLINK_WriteReg(R1, 0x00000400)  returns 0x00 (0000ms, 1360ms total)
T15AC 001:996 JLINK_WriteReg(R2, 0x20000170)  returns 0x00 (0000ms, 1360ms total)
T15AC 001:996 JLINK_WriteReg(R3, 0x00000000)  returns 0x00 (0000ms, 1360ms total)
T15AC 001:996 JLINK_WriteReg(R4, 0x00000000)  returns 0x00 (0000ms, 1360ms total)
T15AC 001:996 JLINK_WriteReg(R5, 0x00000000)  returns 0x00 (0000ms, 1360ms total)
T15AC 001:996 JLINK_WriteReg(R6, 0x00000000)  returns 0x00 (0000ms, 1360ms total)
T15AC 001:996 JLINK_WriteReg(R7, 0x00000000)  returns 0x00 (0000ms, 1360ms total)
T15AC 001:996 JLINK_WriteReg(R8, 0x00000000)  returns 0x00 (0000ms, 1360ms total)
T15AC 001:996 JLINK_WriteReg(R9, 0x2000016C)  returns 0x00 (0000ms, 1360ms total)
T15AC 001:996 JLINK_WriteReg(R10, 0x00000000)  returns 0x00 (0000ms, 1360ms total)
T15AC 001:996 JLINK_WriteReg(R11, 0x00000000)  returns 0x00 (0000ms, 1360ms total)
T15AC 001:996 JLINK_WriteReg(R12, 0x00000000)  returns 0x00 (0000ms, 1360ms total)
T15AC 001:996 JLINK_WriteReg(R13 (SP), 0x20000800)  returns 0x00 (0000ms, 1360ms total)
T15AC 001:996 JLINK_WriteReg(R14, 0x20000001)  returns 0x00 (0000ms, 1360ms total)
T15AC 001:996 JLINK_WriteReg(R15 (PC), 0x200000FA)  returns 0x00 (0000ms, 1360ms total)
T15AC 001:996 JLINK_WriteReg(XPSR, 0x01000000)  returns 0x00 (0000ms, 1360ms total)
T15AC 001:996 JLINK_WriteReg(MSP, 0x20000800)  returns 0x00 (0000ms, 1360ms total)
T15AC 001:996 JLINK_WriteReg(PSP, 0x20000800)  returns 0x00 (0000ms, 1360ms total)
